T4B70 30677:616 SEGGER J-Link V6.44a Log File (0000ms, 278142ms total)
T4B70 30677:616 DLL Compiled: Mar  8 2019 17:31:48 (0000ms, 278142ms total)
T4B70 30677:616 Logging started @ 2019-04-06 21:33 (0000ms, 278142ms total)
T4B70 30677:616 JLINK_SetWarnOutHandler(...) (0000ms, 278142ms total)
T4B70 30677:616 JLINK_OpenEx(...)
Firmware: J-Link V9 compiled Oct 25 2018 11:46:07
Hardware: V9.40
S/N: 59402905
Feature(s): RDI, GDB, FlashDL, FlashBP, JFlash
TELNET listener socket opened on port 19021WEBSRV 
Starting webserver (0032ms, 278174ms total)
T4B70 30677:616 WEBSRV Webserver running on local port 19080 (0032ms, 278174ms total)
T4B70 30677:616   returns O.K. (0032ms, 278174ms total)
T4B70 30677:648 JLINK_GetEmuCaps()  returns 0xB9FF7BBF (0000ms, 278174ms total)
T4B70 30677:648 JLINK_TIF_GetAvailable(...) (0001ms, 278175ms total)
T4B70 30677:649 JLINK_SetErrorOutHandler(...) (0000ms, 278175ms total)
T4B70 30677:649 JLINK_ExecCommand("ProjectFile = "C:\Users\123\Desktop\infantry_repository\super_infantry\infantry\USER\JLinkSettings.ini"", ...).   returns 0x00 (0003ms, 278178ms total)
T4B70 30677:652 JLINK_ExecCommand("Device = STM32F427II", ...). Device "STM32F427II" selected.  returns 0x00 (0003ms, 278181ms total)
T4B70 30677:655 JLINK_ExecCommand("DisableConnectionTimeout", ...).   returns 0x01 (0000ms, 278181ms total)
T4B70 30677:655 JLINK_GetHardwareVersion()  returns 0x16F30 (0000ms, 278181ms total)
T4B70 30677:655 JLINK_GetDLLVersion()  returns 64401 (0000ms, 278181ms total)
T4B70 30677:655 JLINK_GetFirmwareString(...) (0000ms, 278181ms total)
T4B70 30677:655 JLINK_GetDLLVersion()  returns 64401 (0000ms, 278181ms total)
T4B70 30677:655 JLINK_GetCompileDateTime() (0000ms, 278181ms total)
T4B70 30677:655 JLINK_GetFirmwareString(...) (0000ms, 278181ms total)
T4B70 30677:655 JLINK_GetHardwareVersion()  returns 0x16F30 (0000ms, 278181ms total)
T4B70 30677:655 JLINK_TIF_Select(JLINKARM_TIF_SWD)  returns 0x00 (0001ms, 278182ms total)
T4B70 30677:656 JLINK_SetSpeed(5000) (0001ms, 278183ms total)
T4B70 30677:657 JLINK_GetId() >0x10B TIF>Found SW-DP with ID 0x2BA01477 >0x0D TIF> >0x28 TIF> >0x0D TIF> >0x28 TIF> >0x0D TIF> >0x28 TIF> >0x0D TIF> >0x28 TIF> >0x0D TIF> >0x21 TIF> >0x0D TIF> >0x28 TIF> >0x0D TIF> >0x28 TIF> >0x0D TIF> >0x28 TIF> >0x0D TIF> >0x21 TIF> >0x0D TIF> >0x21 TIF> >0x0D TIF> >0x28 TIF> >0x0D TIF> >0x21 TIF> >0x0D TIF> >0x21 TIF> >0x0D TIF> >0x28 TIF> >0x0D TIF> >0x28 TIF> >0x0D TIF> >0x28 TIF> >0x0D TIF> >0x21 TIF> >0x0D TIF> >0x21 TIF> >0x0D TIF> >0x28 TIF> >0x0D TIF>
 >0x28 TIF> >0x0D TIF> >0x28 TIF> >0x0D TIF> >0x21 TIF> >0x0D TIF> >0x21 TIF> >0x0D TIF> >0x28 TIF> >0x0D TIF> >0x21 TIF> >0x0D TIF> >0x21 TIF> >0x0D TIF> >0x28 TIF> >0x0D TIF> >0x21 TIF> >0x0D TIF> >0x21 TIF> >0x0D TIF> >0x28 TIF> >0x0D TIF> >0x21 TIF> >0x0D TIF> >0x21 TIF> >0x10B TIF>Found SW-DP with ID 0x2BA01477 >0x0D TIF> >0x28 TIF> >0x0D TIF> >0x28 TIF> >0x0D TIF> >0x28 TIF> >0x0D TIF> >0x28 TIF> >0x0D TIF> >0x21 TIF> >0x0D TIF> >0x28 TIF>Scanning AP map to find all available APs >0x0D TIF>
 >0x28 TIF> >0x0D TIF> >0x21 TIF> >0x0D TIF> >0x21 TIF> >0x0D TIF> >0x28 TIF> >0x0D TIF> >0x21 TIF> >0x0D TIF> >0x21 TIF>AP[1]: Stopped AP scan as end of AP map has been reachedAP[0]: AHB-AP (IDR: 0x24770011)Iterating through AP map to find AHB-AP to use >0x42 TIF> >0x28 TIF> >0x0D TIF> >0x28 TIF> >0x0D TIF> >0x21 TIF> >0x0D TIF> >0x21 TIF> >0x42 TIF> >0x28 TIF> >0x0D TIF> >0x28 TIF> >0x0D TIF> >0x28 TIF> >0x0D TIF> >0x21 TIF> >0x0D TIF> >0x21 TIF>AP[0]: Core foundAP[0]: AHB-AP ROM base: 0xE00FF000
 >0x0D TIF> >0x28 TIF> >0x0D TIF> >0x28 TIF> >0x0D TIF> >0x28 TIF> >0x0D TIF> >0x21 TIF> >0x0D TIF> >0x21 TIF>CPUID register: 0x410FC241. Implementer code: 0x41 (ARM)Found Cortex-M4 r0p1, Little endian. -- Max. mem block: 0x00010F28 -- CPU_ReadMem(4 bytes @ 0xE000EDF0) -- CPU_WriteMem(4 bytes @ 0xE000EDF0) -- CPU_ReadMem(4 bytes @ 0xE0002000)FPUnit: 6 code (BP) slots and 2 literal slots -- CPU_ReadMem(4 bytes @ 0xE000EDFC) -- CPU_WriteMem(4 bytes @ 0xE000EDFC) -- CPU_ReadMem(4 bytes @ 0xE0001000)
 -- CPU_WriteMem(4 bytes @ 0xE0001000) -- CPU_ReadMem(4 bytes @ 0xE000ED88) -- CPU_WriteMem(4 bytes @ 0xE000ED88) -- CPU_ReadMem(4 bytes @ 0xE000ED88) -- CPU_WriteMem(4 bytes @ 0xE000ED88)CoreSight components:ROMTbl[0] @ E00FF000 -- CPU_ReadMem(16 bytes @ 0xE00FF000) -- CPU_ReadMem(16 bytes @ 0xE000EFF0) -- CPU_ReadMem(16 bytes @ 0xE000EFE0)ROMTbl[0][0]: E000E000, CID: B105E00D, PID: 000BB00C SCS-M7 -- CPU_ReadMem(16 bytes @ 0xE0001FF0) -- CPU_ReadMem(16 bytes @ 0xE0001FE0)
ROMTbl[0][1]: E0001000, CID: B105E00D, PID: 003BB002 DWT -- CPU_ReadMem(16 bytes @ 0xE0002FF0) -- CPU_ReadMem(16 bytes @ 0xE0002FE0)ROMTbl[0][2]: E0002000, CID: B105E00D, PID: 002BB003 FPB -- CPU_ReadMem(16 bytes @ 0xE0000FF0) -- CPU_ReadMem(16 bytes @ 0xE0000FE0)ROMTbl[0][3]: E0000000, CID: B105E00D, PID: 003BB001 ITM -- CPU_ReadMem(16 bytes @ 0xE00FF010) -- CPU_ReadMem(16 bytes @ 0xE0040FF0) -- CPU_ReadMem(16 bytes @ 0xE0040FE0)ROMTbl[0][4]: E0040000, CID: B105900D, PID: 000BB9A1 TPIU
 -- CPU_ReadMem(16 bytes @ 0xE0041FF0) -- CPU_ReadMem(16 bytes @ 0xE0041FE0)ROMTbl[0][5]: E0041000, CID: B105900D, PID: 000BB925 ETM >0x0D TIF> >0x21 TIF>  returns 0x2BA01477 (0137ms, 278320ms total)
T4B70 30677:794 JLINK_GetDLLVersion()  returns 64401 (0000ms, 278320ms total)
T4B70 30677:794 JLINK_CORE_GetFound()  returns 0xE0000FF (0000ms, 278320ms total)
T4B70 30677:794 JLINK_GetDebugInfo(0x100 = JLINKARM_ROM_TABLE_ADDR_INDEX) -- Value=0xE00FF000  returns 0x00 (0000ms, 278320ms total)
T4B70 30677:794 JLINK_GetDebugInfo(0x100 = JLINKARM_ROM_TABLE_ADDR_INDEX) -- Value=0xE00FF000  returns 0x00 (0000ms, 278320ms total)
T4B70 30677:794 JLINK_GetDebugInfo(0x101 = JLINKARM_DEBUG_INFO_ETM_ADDR_INDEX) -- Value=0xE0041000  returns 0x00 (0000ms, 278320ms total)
T4B70 30677:794 JLINK_ReadMemEx(0xE0041FD0, 0x0020 Bytes, ..., Flags = 0x02000004) -- CPU_ReadMem(32 bytes @ 0xE0041FD0) - Data: 04 00 00 00 00 00 00 00 00 00 00 00 00 00 00 00 ...  returns 0x20 (0000ms, 278320ms total)
T4B70 30677:794 JLINK_GetDebugInfo(0x102 = JLINKARM_DEBUG_INFO_MTB_ADDR_INDEX) -- Value=0x00000000  returns 0x00 (0001ms, 278321ms total)
T4B70 30677:795 JLINK_GetDebugInfo(0x103 = JLINKARM_DEBUG_INFO_TPIU_ADDR_INDEX) -- Value=0xE0040000  returns 0x00 (0000ms, 278321ms total)
T4B70 30677:795 JLINK_GetDebugInfo(0x104 = JLINKARM_DEBUG_INFO_ITM_ADDR_INDEX) -- Value=0xE0000000  returns 0x00 (0000ms, 278321ms total)
T4B70 30677:795 JLINK_GetDebugInfo(0x105 = JLINKARM_DEBUG_INFO_DWT_ADDR_INDEX) -- Value=0xE0001000  returns 0x00 (0000ms, 278321ms total)
T4B70 30677:795 JLINK_GetDebugInfo(0x106 = JLINKARM_DEBUG_INFO_FPB_ADDR_INDEX) -- Value=0xE0002000  returns 0x00 (0000ms, 278321ms total)
T4B70 30677:795 JLINK_GetDebugInfo(0x107 = JLINKARM_DEBUG_INFO_NVIC_ADDR_INDEX) -- Value=0xE000E000  returns 0x00 (0000ms, 278321ms total)
T4B70 30677:795 JLINK_GetDebugInfo(0x10C = JLINKARM_DEBUG_INFO_DBG_ADDR_INDEX) -- Value=0xE000EDF0  returns 0x00 (0000ms, 278321ms total)
T4B70 30677:795 JLINK_GetDebugInfo(0x01 = Unknown) -- Value=0x00000001  returns 0x00 (0000ms, 278321ms total)
T4B70 30677:795 JLINK_ReadMemU32(0xE000ED00, 0x0001 Items, ...) -- CPU_ReadMem(4 bytes @ 0xE000ED00) - Data: 41 C2 0F 41  returns 1 (0000ms, 278321ms total)
T4B70 30677:795 JLINK_GetDebugInfo(0x10F = JLINKARM_DEBUG_INFO_HAS_CORTEX_M_SECURITY_EXT_INDEX) -- Value=0x00000000  returns 0x00 (0000ms, 278321ms total)
T4B70 30677:795 JLINK_SetResetType(JLINKARM_CM3_RESET_TYPE_NORMAL)  returns JLINKARM_CM3_RESET_TYPE_NORMAL (0000ms, 278321ms total)
T4B70 30677:795 JLINK_Reset() -- CPU is running -- CPU_WriteMem(4 bytes @ 0xE000EDF0) -- CPU is running -- CPU_WriteMem(4 bytes @ 0xE000EDFC)Reset: Halt core after reset via DEMCR.VC_CORERESET. >0x35 TIF>Reset: Reset device via AIRCR.SYSRESETREQ. -- CPU is running -- CPU_WriteMem(4 bytes @ 0xE000ED0C) >0x0D TIF> >0x28 TIF> -- CPU_ReadMem(4 bytes @ 0xE000EDF0) -- CPU_ReadMem(4 bytes @ 0xE000EDF0) -- CPU is running -- CPU_WriteMem(4 bytes @ 0xE000EDF0) -- CPU is running
 -- CPU_WriteMem(4 bytes @ 0xE000EDFC) -- CPU_ReadMem(4 bytes @ 0xE000EDF0) -- CPU_WriteMem(4 bytes @ 0xE0002000) -- CPU_ReadMem(4 bytes @ 0xE000EDFC) -- CPU_ReadMem(4 bytes @ 0xE0001000) (0065ms, 278386ms total)
T4B70 30677:861 JLINK_ReadReg(R15 (PC))  returns 0x080003F8 (0000ms, 278386ms total)
T4B70 30677:861 JLINK_ReadReg(XPSR)  returns 0x01000000 (0000ms, 278386ms total)
T4B70 30677:861 JLINK_Halt()  returns 0x00 (0000ms, 278386ms total)
T4B70 30677:861 JLINK_ReadMemU32(0xE000EDF0, 0x0001 Items, ...) -- CPU_ReadMem(4 bytes @ 0xE000EDF0) - Data: 03 00 03 00  returns 1 (0000ms, 278386ms total)
T4B70 30677:861 JLINK_WriteU32(0xE000EDF0, 0xA05F0003) -- CPU_WriteMem(4 bytes @ 0xE000EDF0)  returns 0 (0000ms, 278386ms total)
T4B70 30677:861 JLINK_WriteU32(0xE000EDFC, 0x01000000) -- CPU_WriteMem(4 bytes @ 0xE000EDFC)  returns 0 (0001ms, 278387ms total)
T4B70 30677:862 JLINK_GetHWStatus(...)  returns 0x00 (0000ms, 278387ms total)
T4B70 30677:862 JLINK_GetNumBPUnits(Type = 0xFFFFFF00)  returns 0x06 (0000ms, 278387ms total)
T4B70 30677:862 JLINK_GetNumBPUnits(Type = 0xF0)  returns 0x2000 (0000ms, 278387ms total)
T4B70 30677:862 JLINK_GetNumWPUnits()  returns 0x04 (0000ms, 278387ms total)
T4B70 30677:862 JLINK_GetSpeed()  returns 0xFA0 (0000ms, 278387ms total)
T4B70 30677:862 JLINK_ReadMemU32(0xE000E004, 0x0001 Items, ...) -- CPU_ReadMem(4 bytes @ 0xE000E004) - Data: 02 00 00 00  returns 1 (0001ms, 278388ms total)
T4B70 30677:863 JLINK_ReadMemU32(0xE000E004, 0x0001 Items, ...) -- CPU_ReadMem(4 bytes @ 0xE000E004) - Data: 02 00 00 00  returns 1 (0000ms, 278388ms total)
T4B70 30677:863 JLINK_WriteMemEx(0xE0001000, 0x001C Bytes, ..., Flags = 0x02000004) - Data: 01 00 00 00 00 00 00 00 00 00 00 00 00 00 00 00 ... -- CPU_WriteMem(28 bytes @ 0xE0001000)  returns 0x1C (0001ms, 278389ms total)
T4B70 30677:864 JLINK_ReadReg(R15 (PC))  returns 0x080003F8 (0000ms, 278389ms total)
T4B70 30677:864 JLINK_ReadReg(XPSR)  returns 0x01000000 (0000ms, 278389ms total)
T4B70 30677:876 JLINK_ReadMemEx(0xE0001004, 0x0004 Bytes, ..., Flags = 0x02000000) - Data: 00 00 00 00  returns 0x04 (0000ms, 278389ms total)
T4B70 30678:024 JLINK_SetResetType(JLINKARM_CM3_RESET_TYPE_NORMAL)  returns JLINKARM_CM3_RESET_TYPE_NORMAL (0000ms, 278389ms total)
T4B70 30678:024 JLINK_Reset() -- CPU_WriteMem(4 bytes @ 0xE000EDF0) -- CPU_WriteMem(4 bytes @ 0xE000EDFC)Reset: Halt core after reset via DEMCR.VC_CORERESET. >0x35 TIF>Reset: Reset device via AIRCR.SYSRESETREQ. -- CPU_WriteMem(4 bytes @ 0xE000ED0C) >0x0D TIF> >0x28 TIF> -- CPU_ReadMem(4 bytes @ 0xE000EDF0) -- CPU_ReadMem(4 bytes @ 0xE000EDF0) -- CPU_WriteMem(4 bytes @ 0xE000EDF0) -- CPU_WriteMem(4 bytes @ 0xE000EDFC) -- CPU_ReadMem(4 bytes @ 0xE000EDF0) -- CPU_WriteMem(4 bytes @ 0xE0002000)
 -- CPU_ReadMem(4 bytes @ 0xE000EDFC) -- CPU_ReadMem(4 bytes @ 0xE0001000) (0065ms, 278454ms total)
T4B70 30678:090 JLINK_ReadReg(R15 (PC))  returns 0x080003F8 (0000ms, 278454ms total)
T4B70 30678:090 JLINK_ReadReg(XPSR)  returns 0x01000000 (0000ms, 278454ms total)
T4B70 30678:091 JLINK_ReadMemEx(0x080003F8, 0x003C Bytes, ..., Flags = 0x02000000) -- CPU_ReadMem(128 bytes @ 0x080003C0) -- Updating C cache (128 bytes @ 0x080003C0) -- Read from C cache (60 bytes @ 0x080003F8) - Data: 09 48 80 47 09 48 00 47 FE E7 FE E7 FE E7 FE E7 ...  returns 0x3C (0001ms, 278455ms total)
T4B70 30678:092 JLINK_ReadMemEx(0x080003F8, 0x0002 Bytes, ..., Flags = 0x02000000) -- Read from C cache (2 bytes @ 0x080003F8) - Data: 09 48  returns 0x02 (0000ms, 278455ms total)
T4B70 30678:092 JLINK_ReadMemEx(0x080003FA, 0x0002 Bytes, ..., Flags = 0x02000000) -- Read from C cache (2 bytes @ 0x080003FA) - Data: 80 47  returns 0x02 (0000ms, 278455ms total)
T4B70 30678:448 JLINK_ReadMemEx(0x40000C00, 0x0010 Bytes, ..., Flags = 0x02000004) -- CPU_ReadMem(16 bytes @ 0x40000C00) - Data: 00 00 00 00 00 00 00 00 00 00 00 00 00 00 00 00  returns 0x10 (0000ms, 278455ms total)
T4B70 30678:448 JLINK_ReadMemEx(0x40000C10, 0x0004 Bytes, ..., Flags = 0x02000004) -- CPU_ReadMem(4 bytes @ 0x40000C10) - Data: 00 00 00 00  returns 0x04 (0001ms, 278456ms total)
T4B70 30678:449 JLINK_ReadMemEx(0x40000C18, 0x0014 Bytes, ..., Flags = 0x02000004) -- CPU_ReadMem(20 bytes @ 0x40000C18) - Data: 00 00 00 00 00 00 00 00 00 00 00 00 00 00 00 00 ...  returns 0x14 (0000ms, 278456ms total)
T4B70 30678:449 JLINK_ReadMemEx(0x40000C2C, 0x0004 Bytes, ..., Flags = 0x02000004) -- CPU_ReadMem(4 bytes @ 0x40000C2C) - Data: 00 00 00 00  returns 0x04 (0001ms, 278457ms total)
T4B70 30678:450 JLINK_ReadMemEx(0x40000C34, 0x000C Bytes, ..., Flags = 0x02000004) -- CPU_ReadMem(12 bytes @ 0x40000C34) - Data: 00 00 00 00 00 00 00 00 00 00 00 00  returns 0x0C (0001ms, 278458ms total)
T4B70 30678:451 JLINK_ReadMemEx(0x40000C40, 0x0004 Bytes, ..., Flags = 0x02000004) -- CPU_ReadMem(4 bytes @ 0x40000C40) - Data: 00 00 00 00  returns 0x04 (0000ms, 278458ms total)
T4B70 30678:451 JLINK_ReadMemEx(0x40000C48, 0x0008 Bytes, ..., Flags = 0x02000004) -- CPU_ReadMem(8 bytes @ 0x40000C48) - Data: 00 00 00 00 00 00 00 00  returns 0x08 (0001ms, 278459ms total)
T4B70 30678:452 JLINK_ReadMemEx(0x40000C50, 0x0004 Bytes, ..., Flags = 0x02000004) -- CPU_ReadMem(4 bytes @ 0x40000C50) - Data: 00 00 00 00  returns 0x04 (0000ms, 278459ms total)
T4B70 30680:802 JLINK_ReadMemEx(0x080003F8, 0x003C Bytes, ..., Flags = 0x02000000) -- Read from C cache (60 bytes @ 0x080003F8) - Data: 09 48 80 47 09 48 00 47 FE E7 FE E7 FE E7 FE E7 ...  returns 0x3C (0000ms, 278459ms total)
T4B70 30680:802 JLINK_ReadMemEx(0x080003F8, 0x0002 Bytes, ..., Flags = 0x02000000) -- Read from C cache (2 bytes @ 0x080003F8) - Data: 09 48  returns 0x02 (0000ms, 278459ms total)
T4B70 30680:802 JLINK_ReadMemEx(0x080003FA, 0x0002 Bytes, ..., Flags = 0x02000000) -- Read from C cache (2 bytes @ 0x080003FA) - Data: 80 47  returns 0x02 (0000ms, 278459ms total)
T4B70 30680:802 JLINK_ReadMemEx(0x080003FA, 0x0002 Bytes, ..., Flags = 0x02000000) -- Read from C cache (2 bytes @ 0x080003FA) - Data: 80 47  returns 0x02 (0000ms, 278459ms total)
T4B70 30680:802 JLINK_ReadMemEx(0x080003FC, 0x003C Bytes, ..., Flags = 0x02000000) -- Read from C cache (60 bytes @ 0x080003FC) - Data: 09 48 00 47 FE E7 FE E7 FE E7 FE E7 FE E7 FE E7 ...  returns 0x3C (0000ms, 278459ms total)
T4B70 30680:802 JLINK_ReadMemEx(0x080003FC, 0x0002 Bytes, ..., Flags = 0x02000000) -- Read from C cache (2 bytes @ 0x080003FC) - Data: 09 48  returns 0x02 (0000ms, 278459ms total)
T4B70 30681:039 JLINK_ReadReg(R0)  returns 0x00000000 (0000ms, 278459ms total)
T4B70 30681:039 JLINK_ReadReg(R1)  returns 0x00000000 (0000ms, 278459ms total)
T4B70 30681:039 JLINK_ReadReg(R2)  returns 0x00000000 (0000ms, 278459ms total)
T4B70 30681:039 JLINK_ReadReg(R3)  returns 0x00000000 (0000ms, 278459ms total)
T4B70 30681:039 JLINK_ReadReg(R4)  returns 0x00000000 (0000ms, 278459ms total)
T4B70 30681:039 JLINK_ReadReg(R5)  returns 0x00000000 (0000ms, 278459ms total)
T4B70 30681:039 JLINK_ReadReg(R6)  returns 0x00000000 (0000ms, 278459ms total)
T4B70 30681:039 JLINK_ReadReg(R7)  returns 0x00000000 (0000ms, 278459ms total)
T4B70 30681:039 JLINK_ReadReg(R8)  returns 0x00000000 (0000ms, 278459ms total)
T4B70 30681:039 JLINK_ReadReg(R9)  returns 0x00000000 (0000ms, 278459ms total)
T4B70 30681:040 JLINK_ReadReg(R10)  returns 0x00000000 (0000ms, 278460ms total)
T4B70 30681:040 JLINK_ReadReg(R11)  returns 0x00000000 (0000ms, 278460ms total)
T4B70 30681:040 JLINK_ReadReg(R12)  returns 0x00000000 (0000ms, 278460ms total)
T4B70 30681:040 JLINK_ReadReg(R13 (SP))  returns 0x20016C68 (0000ms, 278460ms total)
T4B70 30681:040 JLINK_ReadReg(R14)  returns 0xFFFFFFFF (0000ms, 278460ms total)
T4B70 30681:040 JLINK_ReadReg(R15 (PC))  returns 0x080003F8 (0000ms, 278460ms total)
T4B70 30681:040 JLINK_ReadReg(XPSR)  returns 0x01000000 (0000ms, 278460ms total)
T4B70 30681:040 JLINK_ReadReg(MSP)  returns 0x20016C68 (0000ms, 278460ms total)
T4B70 30681:040 JLINK_ReadReg(PSP)  returns 0x00000000 (0000ms, 278460ms total)
T4B70 30681:040 JLINK_ReadReg(CFBP)  returns 0x00000000 (0000ms, 278460ms total)
T4B70 30681:040 JLINK_ReadReg(FPSCR)  returns 0x00000000 (0003ms, 278463ms total)
T4B70 30681:043 JLINK_ReadReg(FPS0)  returns 0x00000000 (0000ms, 278463ms total)
T4B70 30681:043 JLINK_ReadReg(FPS1)  returns 0x00000000 (0000ms, 278463ms total)
T4B70 30681:043 JLINK_ReadReg(FPS2)  returns 0x00000000 (0000ms, 278463ms total)
T4B70 30681:043 JLINK_ReadReg(FPS3)  returns 0x00000000 (0000ms, 278463ms total)
T4B70 30681:043 JLINK_ReadReg(FPS4)  returns 0x00000000 (0000ms, 278463ms total)
T4B70 30681:043 JLINK_ReadReg(FPS5)  returns 0x00000000 (0000ms, 278463ms total)
T4B70 30681:044 JLINK_ReadReg(FPS6)  returns 0x00000000 (0000ms, 278464ms total)
T4B70 30681:044 JLINK_ReadReg(FPS7)  returns 0x00000000 (0000ms, 278464ms total)
T4B70 30681:044 JLINK_ReadReg(FPS8)  returns 0x00000000 (0000ms, 278464ms total)
T4B70 30681:044 JLINK_ReadReg(FPS9)  returns 0x00000000 (0000ms, 278464ms total)
T4B70 30681:044 JLINK_ReadReg(FPS10)  returns 0x00000000 (0000ms, 278464ms total)
T4B70 30681:044 JLINK_ReadReg(FPS11)  returns 0x00000000 (0000ms, 278464ms total)
T4B70 30681:044 JLINK_ReadReg(FPS12)  returns 0x00000000 (0000ms, 278464ms total)
T4B70 30681:044 JLINK_ReadReg(FPS13)  returns 0x00000000 (0000ms, 278464ms total)
T4B70 30681:044 JLINK_ReadReg(FPS14)  returns 0x00000000 (0000ms, 278464ms total)
T4B70 30681:044 JLINK_ReadReg(FPS15)  returns 0x00000000 (0000ms, 278464ms total)
T4B70 30681:044 JLINK_ReadReg(FPS16)  returns 0x00000000 (0000ms, 278464ms total)
T4B70 30681:044 JLINK_ReadReg(FPS17)  returns 0x00000000 (0000ms, 278464ms total)
T4B70 30681:044 JLINK_ReadReg(FPS18)  returns 0x00000000 (0000ms, 278464ms total)
T4B70 30681:044 JLINK_ReadReg(FPS19)  returns 0x00000000 (0000ms, 278464ms total)
T4B70 30681:044 JLINK_ReadReg(FPS20)  returns 0x00000000 (0000ms, 278464ms total)
T4B70 30681:044 JLINK_ReadReg(FPS21)  returns 0x00000000 (0000ms, 278464ms total)
T4B70 30681:044 JLINK_ReadReg(FPS22)  returns 0x00000000 (0000ms, 278464ms total)
T4B70 30681:044 JLINK_ReadReg(FPS23)  returns 0x00000000 (0000ms, 278464ms total)
T4B70 30681:044 JLINK_ReadReg(FPS24)  returns 0x00000000 (0000ms, 278464ms total)
T4B70 30681:044 JLINK_ReadReg(FPS25)  returns 0x00000000 (0000ms, 278464ms total)
T4B70 30681:044 JLINK_ReadReg(FPS26)  returns 0x00000000 (0001ms, 278465ms total)
T4B70 30681:045 JLINK_ReadReg(FPS27)  returns 0x00000000 (0000ms, 278465ms total)
T4B70 30681:045 JLINK_ReadReg(FPS28)  returns 0x00000000 (0000ms, 278465ms total)
T4B70 30681:045 JLINK_ReadReg(FPS29)  returns 0x00000000 (0000ms, 278465ms total)
T4B70 30681:045 JLINK_ReadReg(FPS30)  returns 0x00000000 (0000ms, 278465ms total)
T4B70 30681:045 JLINK_ReadReg(FPS31)  returns 0x00000000 (0000ms, 278465ms total)
T4B70 30681:052 JLINK_ReadMemEx(0x200000AC, 0x0004 Bytes, ..., Flags = 0x02000000) -- CPU_ReadMem(64 bytes @ 0x20000080) -- Updating C cache (64 bytes @ 0x20000080) -- Read from C cache (4 bytes @ 0x200000AC) - Data: 00 00 48 C2  returns 0x04 (0001ms, 278466ms total)
T4B70 30681:053 JLINK_ReadMemEx(0x200000AC, 0x0004 Bytes, ..., Flags = 0x02000000) -- Read from C cache (4 bytes @ 0x200000AC) - Data: 00 00 48 C2  returns 0x04 (0000ms, 278466ms total)
T4B70 30681:053 JLINK_ReadMemEx(0x200000AC, 0x0004 Bytes, ..., Flags = 0x02000000) -- Read from C cache (4 bytes @ 0x200000AC) - Data: 00 00 48 C2  returns 0x04 (0001ms, 278467ms total)
T4B70 30681:055 JLINK_ReadMemEx(0x200000B0, 0x0004 Bytes, ..., Flags = 0x02000000) -- Read from C cache (4 bytes @ 0x200000B0) - Data: CD CC CC BD  returns 0x04 (0000ms, 278467ms total)
T4B70 30681:055 JLINK_ReadMemEx(0x200000B0, 0x0004 Bytes, ..., Flags = 0x02000000) -- Read from C cache (4 bytes @ 0x200000B0) - Data: CD CC CC BD  returns 0x04 (0000ms, 278467ms total)
T4B70 30681:055 JLINK_ReadMemEx(0x200000B0, 0x0004 Bytes, ..., Flags = 0x02000000) -- Read from C cache (4 bytes @ 0x200000B0) - Data: CD CC CC BD  returns 0x04 (0000ms, 278467ms total)
T4B70 30681:056 JLINK_ReadMemEx(0x200000B8, 0x0004 Bytes, ..., Flags = 0x02000000) -- Read from C cache (4 bytes @ 0x200000B8) - Data: 00 00 AD 42  returns 0x04 (0000ms, 278467ms total)
T4B70 30681:057 JLINK_ReadMemEx(0x200000B8, 0x0004 Bytes, ..., Flags = 0x02000000) -- Read from C cache (4 bytes @ 0x200000B8) - Data: 00 00 AD 42  returns 0x04 (0000ms, 278467ms total)
T4B70 30681:057 JLINK_ReadMemEx(0x200000B8, 0x0004 Bytes, ..., Flags = 0x02000000) -- Read from C cache (4 bytes @ 0x200000B8) - Data: 00 00 AD 42  returns 0x04 (0000ms, 278467ms total)
T4B70 30681:058 JLINK_ReadMemEx(0x200000B4, 0x0004 Bytes, ..., Flags = 0x02000000) -- Read from C cache (4 bytes @ 0x200000B4) - Data: 00 00 00 00  returns 0x04 (0000ms, 278467ms total)
T4B70 30681:058 JLINK_ReadMemEx(0x200000B4, 0x0004 Bytes, ..., Flags = 0x02000000) -- Read from C cache (4 bytes @ 0x200000B4) - Data: 00 00 00 00  returns 0x04 (0000ms, 278467ms total)
T4B70 30681:059 JLINK_ReadMemEx(0x200000B4, 0x0004 Bytes, ..., Flags = 0x02000000) -- Read from C cache (4 bytes @ 0x200000B4) - Data: 00 00 00 00  returns 0x04 (0000ms, 278467ms total)
T4B70 30681:077 JLINK_ReadMemEx(0x200000BC, 0x0004 Bytes, ..., Flags = 0x02000000) -- Read from C cache (4 bytes @ 0x200000BC) - Data: 00 00 A0 40  returns 0x04 (0000ms, 278467ms total)
T4B70 30681:077 JLINK_ReadMemEx(0x200000BC, 0x0004 Bytes, ..., Flags = 0x02000000) -- Read from C cache (4 bytes @ 0x200000BC) - Data: 00 00 A0 40  returns 0x04 (0000ms, 278467ms total)
T4B70 30681:077 JLINK_ReadMemEx(0x200000BC, 0x0004 Bytes, ..., Flags = 0x02000000) -- Read from C cache (4 bytes @ 0x200000BC) - Data: 00 00 A0 40  returns 0x04 (0000ms, 278467ms total)
T4B70 30681:078 JLINK_ReadMemEx(0x200000C0, 0x0004 Bytes, ..., Flags = 0x02000000) -- CPU_ReadMem(64 bytes @ 0x200000C0) -- Updating C cache (64 bytes @ 0x200000C0) -- Read from C cache (4 bytes @ 0x200000C0) - Data: CD CC CC 3D  returns 0x04 (0001ms, 278468ms total)
T4B70 30681:079 JLINK_ReadMemEx(0x200000C0, 0x0004 Bytes, ..., Flags = 0x02000000) -- Read from C cache (4 bytes @ 0x200000C0) - Data: CD CC CC 3D  returns 0x04 (0000ms, 278468ms total)
T4B70 30681:079 JLINK_ReadMemEx(0x200000C0, 0x0004 Bytes, ..., Flags = 0x02000000) -- Read from C cache (4 bytes @ 0x200000C0) - Data: CD CC CC 3D  returns 0x04 (0000ms, 278468ms total)
T4B70 30681:080 JLINK_ReadMemEx(0x200000C4, 0x0004 Bytes, ..., Flags = 0x02000000) -- Read from C cache (4 bytes @ 0x200000C4) - Data: 00 00 00 00  returns 0x04 (0000ms, 278468ms total)
T4B70 30681:080 JLINK_ReadMemEx(0x200000C4, 0x0004 Bytes, ..., Flags = 0x02000000) -- Read from C cache (4 bytes @ 0x200000C4) - Data: 00 00 00 00  returns 0x04 (0000ms, 278468ms total)
T4B70 30681:080 JLINK_ReadMemEx(0x200000C4, 0x0004 Bytes, ..., Flags = 0x02000000) -- Read from C cache (4 bytes @ 0x200000C4) - Data: 00 00 00 00  returns 0x04 (0000ms, 278468ms total)
TAAC4 30681:226 JLINK_ReadMemEx(0x080003F8, 0x0002 Bytes, ..., Flags = 0x02000000) -- Read from C cache (2 bytes @ 0x080003F8) - Data: 09 48  returns 0x02 (0000ms, 278468ms total)
TAAC4 30681:226 JLINK_SetBPEx(Addr = 0x0800F508, Type = 0xFFFFFFF2)  returns 0x00000001 (0000ms, 278468ms total)
TAAC4 30681:226 JLINK_Go() -- CPU_WriteMem(4 bytes @ 0xE0002000) -- CPU_ReadMem(4 bytes @ 0xE0001000) -- CPU_WriteMem(4 bytes @ 0xE0002008) -- CPU_WriteMem(4 bytes @ 0xE000200C) -- CPU_WriteMem(4 bytes @ 0xE0002010) -- CPU_WriteMem(4 bytes @ 0xE0002014) -- CPU_WriteMem(4 bytes @ 0xE0002018) -- CPU_WriteMem(4 bytes @ 0xE000201C) -- CPU_WriteMem(4 bytes @ 0xE0001004) (0003ms, 278471ms total)
TAAC4 30681:330 JLINK_IsHalted()  returns TRUE (0002ms, 278473ms total)
TAAC4 30681:332 JLINK_Halt()  returns 0x00 (0000ms, 278471ms total)
TAAC4 30681:332 JLINK_IsHalted()  returns TRUE (0000ms, 278471ms total)
TAAC4 30681:332 JLINK_IsHalted()  returns TRUE (0000ms, 278471ms total)
TAAC4 30681:332 JLINK_IsHalted()  returns TRUE (0000ms, 278471ms total)
TAAC4 30681:332 JLINK_ReadReg(R15 (PC))  returns 0x0800F508 (0000ms, 278471ms total)
TAAC4 30681:332 JLINK_ReadReg(XPSR)  returns 0x61000000 (0000ms, 278471ms total)
TAAC4 30681:332 JLINK_ClrBPEx(BPHandle = 0x00000001)  returns 0x00 (0000ms, 278471ms total)
TAAC4 30681:332 JLINK_ReadMemU32(0xE000ED30, 0x0001 Items, ...) -- CPU_ReadMem(4 bytes @ 0xE000ED30) - Data: 02 00 00 00  returns 1 (0000ms, 278471ms total)
TAAC4 30681:332 JLINK_ReadMemU32(0xE0001028, 0x0001 Items, ...) -- CPU_ReadMem(4 bytes @ 0xE0001028) - Data: 00 00 00 00  returns 1 (0001ms, 278472ms total)
TAAC4 30681:333 JLINK_ReadMemU32(0xE0001038, 0x0001 Items, ...) -- CPU_ReadMem(4 bytes @ 0xE0001038) - Data: 00 02 00 00  returns 1 (0000ms, 278472ms total)
TAAC4 30681:333 JLINK_ReadMemU32(0xE0001048, 0x0001 Items, ...) -- CPU_ReadMem(4 bytes @ 0xE0001048) - Data: 00 00 00 00  returns 1 (0001ms, 278473ms total)
TAAC4 30681:334 JLINK_ReadMemU32(0xE0001058, 0x0001 Items, ...) -- CPU_ReadMem(4 bytes @ 0xE0001058) - Data: 00 00 00 00  returns 1 (0000ms, 278473ms total)
TAAC4 30681:334 JLINK_ReadReg(R0)  returns 0x20015868 (0000ms, 278473ms total)
TAAC4 30681:334 JLINK_ReadReg(R1)  returns 0x20016868 (0000ms, 278473ms total)
TAAC4 30681:334 JLINK_ReadReg(R2)  returns 0x20016868 (0000ms, 278473ms total)
TAAC4 30681:334 JLINK_ReadReg(R3)  returns 0x20016868 (0000ms, 278473ms total)
TAAC4 30681:334 JLINK_ReadReg(R4)  returns 0x00000000 (0000ms, 278473ms total)
TAAC4 30681:334 JLINK_ReadReg(R5)  returns 0x20015808 (0000ms, 278473ms total)
TAAC4 30681:334 JLINK_ReadReg(R6)  returns 0x00000000 (0000ms, 278473ms total)
TAAC4 30681:334 JLINK_ReadReg(R7)  returns 0x00000000 (0000ms, 278473ms total)
TAAC4 30681:334 JLINK_ReadReg(R8)  returns 0x00000000 (0000ms, 278473ms total)
TAAC4 30681:334 JLINK_ReadReg(R9)  returns 0x00000000 (0000ms, 278473ms total)
TAAC4 30681:334 JLINK_ReadReg(R10)  returns 0x080151D4 (0000ms, 278473ms total)
TAAC4 30681:334 JLINK_ReadReg(R11)  returns 0x00000000 (0000ms, 278473ms total)
TAAC4 30681:334 JLINK_ReadReg(R12)  returns 0x20015848 (0000ms, 278473ms total)
TAAC4 30681:334 JLINK_ReadReg(R13 (SP))  returns 0x20016C68 (0000ms, 278473ms total)
TAAC4 30681:334 JLINK_ReadReg(R14)  returns 0x08000327 (0000ms, 278473ms total)
TAAC4 30681:334 JLINK_ReadReg(R15 (PC))  returns 0x0800F508 (0001ms, 278474ms total)
TAAC4 30681:335 JLINK_ReadReg(XPSR)  returns 0x61000000 (0000ms, 278474ms total)
TAAC4 30681:335 JLINK_ReadReg(MSP)  returns 0x20016C68 (0000ms, 278474ms total)
TAAC4 30681:335 JLINK_ReadReg(PSP)  returns 0x00000000 (0000ms, 278474ms total)
TAAC4 30681:335 JLINK_ReadReg(CFBP)  returns 0x04000000 (0000ms, 278474ms total)
TAAC4 30681:335 JLINK_ReadReg(FPSCR)  returns 0x03000000 (0003ms, 278477ms total)
TAAC4 30681:338 JLINK_ReadReg(FPS0)  returns 0x00000000 (0000ms, 278477ms total)
TAAC4 30681:338 JLINK_ReadReg(FPS1)  returns 0x00000000 (0000ms, 278477ms total)
TAAC4 30681:338 JLINK_ReadReg(FPS2)  returns 0x00000000 (0000ms, 278477ms total)
TAAC4 30681:338 JLINK_ReadReg(FPS3)  returns 0x00000000 (0000ms, 278477ms total)
TAAC4 30681:338 JLINK_ReadReg(FPS4)  returns 0x00000000 (0000ms, 278477ms total)
TAAC4 30681:338 JLINK_ReadReg(FPS5)  returns 0x00000000 (0000ms, 278477ms total)
TAAC4 30681:338 JLINK_ReadReg(FPS6)  returns 0x00000000 (0000ms, 278477ms total)
TAAC4 30681:338 JLINK_ReadReg(FPS7)  returns 0x00000000 (0000ms, 278477ms total)
TAAC4 30681:338 JLINK_ReadReg(FPS8)  returns 0x00000000 (0000ms, 278477ms total)
TAAC4 30681:338 JLINK_ReadReg(FPS9)  returns 0x00000000 (0000ms, 278477ms total)
TAAC4 30681:338 JLINK_ReadReg(FPS10)  returns 0x00000000 (0000ms, 278477ms total)
TAAC4 30681:338 JLINK_ReadReg(FPS11)  returns 0x00000000 (0000ms, 278477ms total)
TAAC4 30681:338 JLINK_ReadReg(FPS12)  returns 0x00000000 (0000ms, 278477ms total)
TAAC4 30681:338 JLINK_ReadReg(FPS13)  returns 0x00000000 (0000ms, 278477ms total)
TAAC4 30681:338 JLINK_ReadReg(FPS14)  returns 0x00000000 (0000ms, 278477ms total)
TAAC4 30681:338 JLINK_ReadReg(FPS15)  returns 0x00000000 (0000ms, 278477ms total)
TAAC4 30681:338 JLINK_ReadReg(FPS16)  returns 0x00000000 (0001ms, 278478ms total)
TAAC4 30681:339 JLINK_ReadReg(FPS17)  returns 0x00000000 (0000ms, 278478ms total)
TAAC4 30681:339 JLINK_ReadReg(FPS18)  returns 0x00000000 (0000ms, 278478ms total)
TAAC4 30681:339 JLINK_ReadReg(FPS19)  returns 0x00000000 (0000ms, 278478ms total)
TAAC4 30681:339 JLINK_ReadReg(FPS20)  returns 0x00000000 (0000ms, 278478ms total)
TAAC4 30681:339 JLINK_ReadReg(FPS21)  returns 0x00000000 (0000ms, 278478ms total)
TAAC4 30681:339 JLINK_ReadReg(FPS22)  returns 0x00000000 (0000ms, 278478ms total)
TAAC4 30681:339 JLINK_ReadReg(FPS23)  returns 0x00000000 (0000ms, 278478ms total)
TAAC4 30681:339 JLINK_ReadReg(FPS24)  returns 0x00000000 (0000ms, 278478ms total)
TAAC4 30681:339 JLINK_ReadReg(FPS25)  returns 0x00000000 (0000ms, 278478ms total)
TAAC4 30681:339 JLINK_ReadReg(FPS26)  returns 0x00000000 (0000ms, 278478ms total)
TAAC4 30681:339 JLINK_ReadReg(FPS27)  returns 0x00000000 (0000ms, 278478ms total)
TAAC4 30681:339 JLINK_ReadReg(FPS28)  returns 0x00000000 (0000ms, 278478ms total)
TAAC4 30681:339 JLINK_ReadReg(FPS29)  returns 0x00000000 (0000ms, 278478ms total)
TAAC4 30681:339 JLINK_ReadReg(FPS30)  returns 0x00000000 (0000ms, 278478ms total)
TAAC4 30681:339 JLINK_ReadReg(FPS31)  returns 0x00000000 (0000ms, 278478ms total)
T4B70 30681:344 JLINK_ReadMemEx(0x200000AC, 0x0004 Bytes, ..., Flags = 0x02000000) -- CPU_ReadMem(64 bytes @ 0x20000080) -- Updating C cache (64 bytes @ 0x20000080) -- Read from C cache (4 bytes @ 0x200000AC) - Data: 00 00 48 C2  returns 0x04 (0000ms, 278478ms total)
T4B70 30681:344 JLINK_ReadMemEx(0x200000B0, 0x0004 Bytes, ..., Flags = 0x02000000) -- Read from C cache (4 bytes @ 0x200000B0) - Data: CD CC CC BD  returns 0x04 (0000ms, 278478ms total)
T4B70 30681:344 JLINK_ReadMemEx(0x200000B8, 0x0004 Bytes, ..., Flags = 0x02000000) -- Read from C cache (4 bytes @ 0x200000B8) - Data: 00 00 AD 42  returns 0x04 (0000ms, 278478ms total)
T4B70 30681:344 JLINK_ReadMemEx(0x200000B4, 0x0004 Bytes, ..., Flags = 0x02000000) -- Read from C cache (4 bytes @ 0x200000B4) - Data: 00 00 00 00  returns 0x04 (0000ms, 278478ms total)
T4B70 30681:427 JLINK_ReadMemEx(0x200000BC, 0x0004 Bytes, ..., Flags = 0x02000000) -- Read from C cache (4 bytes @ 0x200000BC) - Data: 00 00 A0 40  returns 0x04 (0000ms, 278479ms total)
T4B70 30681:427 JLINK_ReadMemEx(0x200000C0, 0x0004 Bytes, ..., Flags = 0x02000000) -- CPU_ReadMem(64 bytes @ 0x200000C0) -- Updating C cache (64 bytes @ 0x200000C0) -- Read from C cache (4 bytes @ 0x200000C0) - Data: CD CC CC 3D  returns 0x04 (0001ms, 278480ms total)
T4B70 30681:428 JLINK_ReadMemEx(0x200000C4, 0x0004 Bytes, ..., Flags = 0x02000000) -- Read from C cache (4 bytes @ 0x200000C4) - Data: 00 00 00 00  returns 0x04 (0000ms, 278480ms total)
T4B70 30681:428 JLINK_ReadMemEx(0x40000C00, 0x0010 Bytes, ..., Flags = 0x02000004) -- CPU_ReadMem(16 bytes @ 0x40000C00) - Data: 00 00 00 00 00 00 00 00 00 00 00 00 00 00 00 00  returns 0x10 (0000ms, 278480ms total)
T4B70 30681:428 JLINK_ReadMemEx(0x40000C10, 0x0004 Bytes, ..., Flags = 0x02000004) -- CPU_ReadMem(4 bytes @ 0x40000C10) - Data: 00 00 00 00  returns 0x04 (0001ms, 278481ms total)
T4B70 30681:429 JLINK_ReadMemEx(0x40000C18, 0x0014 Bytes, ..., Flags = 0x02000004) -- CPU_ReadMem(20 bytes @ 0x40000C18) - Data: 00 00 00 00 00 00 00 00 00 00 00 00 00 00 00 00 ...  returns 0x14 (0000ms, 278481ms total)
T4B70 30681:429 JLINK_ReadMemEx(0x40000C2C, 0x0004 Bytes, ..., Flags = 0x02000004) -- CPU_ReadMem(4 bytes @ 0x40000C2C) - Data: 00 00 00 00  returns 0x04 (0000ms, 278481ms total)
T4B70 30681:429 JLINK_ReadMemEx(0x40000C34, 0x000C Bytes, ..., Flags = 0x02000004) -- CPU_ReadMem(12 bytes @ 0x40000C34) - Data: 00 00 00 00 00 00 00 00 00 00 00 00  returns 0x0C (0001ms, 278482ms total)
T4B70 30681:430 JLINK_ReadMemEx(0x40000C40, 0x0004 Bytes, ..., Flags = 0x02000004) -- CPU_ReadMem(4 bytes @ 0x40000C40) - Data: 00 00 00 00  returns 0x04 (0000ms, 278482ms total)
T4B70 30681:430 JLINK_ReadMemEx(0x40000C48, 0x0008 Bytes, ..., Flags = 0x02000004) -- CPU_ReadMem(8 bytes @ 0x40000C48) - Data: 00 00 00 00 00 00 00 00  returns 0x08 (0000ms, 278482ms total)
T4B70 30681:430 JLINK_ReadMemEx(0x40000C50, 0x0004 Bytes, ..., Flags = 0x02000004) -- CPU_ReadMem(4 bytes @ 0x40000C50) - Data: 00 00 00 00  returns 0x04 (0001ms, 278483ms total)
T4B70 30681:431 JLINK_ReadMemEx(0x0800F508, 0x003C Bytes, ..., Flags = 0x02000000) -- CPU_ReadMem(128 bytes @ 0x0800F500) -- Updating C cache (128 bytes @ 0x0800F500) -- Read from C cache (60 bytes @ 0x0800F508) - Data: 1C B5 02 F0 D3 FC 64 20 FC F7 4E FF 06 48 02 21 ...  returns 0x3C (0001ms, 278484ms total)
T4B70 30681:432 JLINK_ReadMemEx(0x0800F508, 0x0002 Bytes, ..., Flags = 0x02000000) -- Read from C cache (2 bytes @ 0x0800F508) - Data: 1C B5  returns 0x02 (0001ms, 278485ms total)
T4B70 30681:433 JLINK_ReadMemEx(0x0800F50A, 0x0002 Bytes, ..., Flags = 0x02000000) -- Read from C cache (2 bytes @ 0x0800F50A) - Data: 02 F0  returns 0x02 (0000ms, 278485ms total)
TAAC4 30682:759 JLINK_ReadMemEx(0x0800F508, 0x0002 Bytes, ..., Flags = 0x02000000) -- Read from C cache (2 bytes @ 0x0800F508) - Data: 1C B5  returns 0x02 (0000ms, 278485ms total)
TAAC4 30682:759 JLINK_Go() -- CPU_ReadMem(4 bytes @ 0xE0001000) -- CPU_WriteMem(4 bytes @ 0xE0002008) (0002ms, 278487ms total)
TAAC4 30682:862 JLINK_IsHalted()  returns FALSE (0000ms, 278487ms total)
TAAC4 30682:963 JLINK_IsHalted()  returns FALSE (0000ms, 278487ms total)
TAAC4 30683:063 JLINK_IsHalted()  returns FALSE (0000ms, 278487ms total)
TAAC4 30683:164 JLINK_IsHalted()  returns FALSE (0000ms, 278487ms total)
TAAC4 30683:265 JLINK_IsHalted()  returns FALSE (0000ms, 278487ms total)
TAAC4 30683:366 JLINK_ReadMemU32(0xE0001004, 0x0001 Items, ...) -- CPU_ReadMem(4 bytes @ 0xE0001004) - Data: EF 70 7E 06  returns 1 (0000ms, 278487ms total)
T4B70 30683:369 JLINK_ReadMemEx(0x200000AC, 0x0004 Bytes, ..., Flags = 0x02000000) -- CPU_ReadMem(4 bytes @ 0x200000AC) - Data: 00 00 48 C2  returns 0x04 (0000ms, 278487ms total)
T4B70 30683:369 JLINK_ReadMemEx(0x200000B0, 0x0004 Bytes, ..., Flags = 0x02000000) -- CPU_ReadMem(4 bytes @ 0x200000B0) - Data: CD CC CC BD  returns 0x04 (0001ms, 278488ms total)
T4B70 30683:370 JLINK_ReadMemEx(0x200000B8, 0x0004 Bytes, ..., Flags = 0x02000000) -- CPU_ReadMem(4 bytes @ 0x200000B8) - Data: 00 00 AD 42  returns 0x04 (0000ms, 278488ms total)
T4B70 30683:370 JLINK_ReadMemEx(0x200000B4, 0x0004 Bytes, ..., Flags = 0x02000000) -- CPU_ReadMem(4 bytes @ 0x200000B4) - Data: 00 00 00 00  returns 0x04 (0000ms, 278488ms total)
T4B70 30683:445 JLINK_ReadMemEx(0x200000BC, 0x0004 Bytes, ..., Flags = 0x02000000) -- CPU_ReadMem(4 bytes @ 0x200000BC) - Data: 00 00 A0 40  returns 0x04 (0001ms, 278489ms total)
T4B70 30683:446 JLINK_ReadMemEx(0x200000C0, 0x0004 Bytes, ..., Flags = 0x02000000) -- CPU_ReadMem(4 bytes @ 0x200000C0) - Data: CD CC CC 3D  returns 0x04 (0000ms, 278489ms total)
T4B70 30683:446 JLINK_ReadMemEx(0x200000C4, 0x0004 Bytes, ..., Flags = 0x02000000) -- CPU_ReadMem(4 bytes @ 0x200000C4) - Data: 00 00 00 00  returns 0x04 (0001ms, 278490ms total)
T4B70 30683:447 JLINK_ReadMemEx(0x40000C00, 0x0010 Bytes, ..., Flags = 0x02000004) -- CPU_ReadMem(16 bytes @ 0x40000C00) - Data: 01 00 00 00 00 00 00 00 00 00 00 00 00 00 00 00  returns 0x10 (0000ms, 278490ms total)
T4B70 30683:447 JLINK_ReadMemEx(0x40000C10, 0x0004 Bytes, ..., Flags = 0x02000004) -- CPU_ReadMem(4 bytes @ 0x40000C10) - Data: 1F 00 00 00  returns 0x04 (0001ms, 278491ms total)
T4B70 30683:448 JLINK_ReadMemEx(0x40000C18, 0x0014 Bytes, ..., Flags = 0x02000004) -- CPU_ReadMem(20 bytes @ 0x40000C18) - Data: 68 68 00 00 00 00 00 00 11 00 00 00 94 1A 00 00 ...  returns 0x14 (0001ms, 278492ms total)
T4B70 30683:449 JLINK_ReadMemEx(0x40000C2C, 0x0004 Bytes, ..., Flags = 0x02000004) -- CPU_ReadMem(4 bytes @ 0x40000C2C) - Data: 1F 4E 00 00  returns 0x04 (0000ms, 278492ms total)
T4B70 30683:449 JLINK_ReadMemEx(0x40000C34, 0x000C Bytes, ..., Flags = 0x02000004) -- CPU_ReadMem(12 bytes @ 0x40000C34) - Data: E8 03 00 00 E8 03 00 00 00 00 00 00  returns 0x0C (0001ms, 278493ms total)
T4B70 30683:450 JLINK_ReadMemEx(0x40000C40, 0x0004 Bytes, ..., Flags = 0x02000004) -- CPU_ReadMem(4 bytes @ 0x40000C40) - Data: 00 00 00 00  returns 0x04 (0000ms, 278493ms total)
T4B70 30683:450 JLINK_ReadMemEx(0x40000C48, 0x0008 Bytes, ..., Flags = 0x02000004) -- CPU_ReadMem(8 bytes @ 0x40000C48) - Data: 00 00 00 00 01 00 00 00  returns 0x08 (0000ms, 278493ms total)
T4B70 30683:451 JLINK_ReadMemEx(0x40000C50, 0x0004 Bytes, ..., Flags = 0x02000004) -- CPU_ReadMem(4 bytes @ 0x40000C50) - Data: 00 00 00 00  returns 0x04 (0000ms, 278493ms total)
TAAC4 30683:453 JLINK_IsHalted()  returns FALSE (0000ms, 278493ms total)
TAAC4 30683:555 JLINK_IsHalted()  returns FALSE (0000ms, 278493ms total)
TAAC4 30683:655 JLINK_IsHalted()  returns FALSE (0000ms, 278493ms total)
TAAC4 30683:756 JLINK_IsHalted()  returns FALSE (0000ms, 278493ms total)
TAAC4 30683:857 JLINK_IsHalted()  returns FALSE (0001ms, 278494ms total)
TAAC4 30683:959 JLINK_ReadMemU32(0xE0001004, 0x0001 Items, ...) - Data: EF 70 7E 06  returns 1 (0000ms, 278493ms total)
T4B70 30683:960 JLINK_ReadMemEx(0x200000AC, 0x0004 Bytes, ..., Flags = 0x02000000) -- CPU_ReadMem(4 bytes @ 0x200000AC) - Data: 00 00 48 C2  returns 0x04 (0001ms, 278494ms total)
T4B70 30683:961 JLINK_ReadMemEx(0x200000B0, 0x0004 Bytes, ..., Flags = 0x02000000) -- CPU_ReadMem(4 bytes @ 0x200000B0) - Data: CD CC CC BD  returns 0x04 (0000ms, 278494ms total)
T4B70 30683:961 JLINK_ReadMemEx(0x200000B8, 0x0004 Bytes, ..., Flags = 0x02000000) -- CPU_ReadMem(4 bytes @ 0x200000B8) - Data: 00 00 AD 42  returns 0x04 (0001ms, 278495ms total)
T4B70 30683:962 JLINK_ReadMemEx(0x200000B4, 0x0004 Bytes, ..., Flags = 0x02000000) -- CPU_ReadMem(4 bytes @ 0x200000B4) - Data: 00 00 00 00  returns 0x04 (0000ms, 278495ms total)
T4B70 30684:036 JLINK_ReadMemEx(0x200000BC, 0x0004 Bytes, ..., Flags = 0x02000000) -- CPU_ReadMem(4 bytes @ 0x200000BC) - Data: 00 00 A0 40  returns 0x04 (0001ms, 278496ms total)
T4B70 30684:037 JLINK_ReadMemEx(0x200000C0, 0x0004 Bytes, ..., Flags = 0x02000000) -- CPU_ReadMem(4 bytes @ 0x200000C0) - Data: CD CC CC 3D  returns 0x04 (0000ms, 278496ms total)
T4B70 30684:037 JLINK_ReadMemEx(0x200000C4, 0x0004 Bytes, ..., Flags = 0x02000000) -- CPU_ReadMem(4 bytes @ 0x200000C4) - Data: 00 00 00 00  returns 0x04 (0001ms, 278497ms total)
T4B70 30684:038 JLINK_ReadMemEx(0x40000C00, 0x0010 Bytes, ..., Flags = 0x02000004) -- CPU_ReadMem(16 bytes @ 0x40000C00) - Data: 01 00 00 00 00 00 00 00 00 00 00 00 00 00 00 00  returns 0x10 (0000ms, 278497ms total)
T4B70 30684:038 JLINK_ReadMemEx(0x40000C10, 0x0004 Bytes, ..., Flags = 0x02000004) -- CPU_ReadMem(4 bytes @ 0x40000C10) - Data: 1F 00 00 00  returns 0x04 (0001ms, 278498ms total)
T4B70 30684:039 JLINK_ReadMemEx(0x40000C18, 0x0014 Bytes, ..., Flags = 0x02000004) -- CPU_ReadMem(20 bytes @ 0x40000C18) - Data: 68 68 00 00 00 00 00 00 11 00 00 00 23 46 00 00 ...  returns 0x14 (0000ms, 278498ms total)
T4B70 30684:039 JLINK_ReadMemEx(0x40000C2C, 0x0004 Bytes, ..., Flags = 0x02000004) -- CPU_ReadMem(4 bytes @ 0x40000C2C) - Data: 1F 4E 00 00  returns 0x04 (0000ms, 278498ms total)
T4B70 30684:039 JLINK_ReadMemEx(0x40000C34, 0x000C Bytes, ..., Flags = 0x02000004) -- CPU_ReadMem(12 bytes @ 0x40000C34) - Data: B0 04 00 00 A7 04 00 00 00 00 00 00  returns 0x0C (0001ms, 278499ms total)
T4B70 30684:040 JLINK_ReadMemEx(0x40000C40, 0x0004 Bytes, ..., Flags = 0x02000004) -- CPU_ReadMem(4 bytes @ 0x40000C40) - Data: 00 00 00 00  returns 0x04 (0000ms, 278499ms total)
T4B70 30684:040 JLINK_ReadMemEx(0x40000C48, 0x0008 Bytes, ..., Flags = 0x02000004) -- CPU_ReadMem(8 bytes @ 0x40000C48) - Data: 00 00 00 00 01 00 00 00  returns 0x08 (0001ms, 278500ms total)
T4B70 30684:041 JLINK_ReadMemEx(0x40000C50, 0x0004 Bytes, ..., Flags = 0x02000004) -- CPU_ReadMem(4 bytes @ 0x40000C50) - Data: 00 00 00 00  returns 0x04 (0000ms, 278500ms total)
TAAC4 30684:042 JLINK_IsHalted()  returns FALSE (0000ms, 278500ms total)
TAAC4 30684:143 JLINK_IsHalted()  returns FALSE (0000ms, 278500ms total)
TAAC4 30684:244 JLINK_IsHalted()  returns FALSE (0000ms, 278500ms total)
TAAC4 30684:345 JLINK_IsHalted()  returns FALSE (0000ms, 278500ms total)
TAAC4 30684:446 JLINK_IsHalted()  returns FALSE (0000ms, 278500ms total)
TAAC4 30684:547 JLINK_ReadMemU32(0xE0001004, 0x0001 Items, ...) - Data: EF 70 7E 06  returns 1 (0000ms, 278500ms total)
T4B70 30684:549 JLINK_ReadMemEx(0x200000AC, 0x0004 Bytes, ..., Flags = 0x02000000) -- CPU_ReadMem(4 bytes @ 0x200000AC) - Data: 00 00 48 C2  returns 0x04 (0001ms, 278501ms total)
T4B70 30684:550 JLINK_ReadMemEx(0x200000B0, 0x0004 Bytes, ..., Flags = 0x02000000) -- CPU_ReadMem(4 bytes @ 0x200000B0) - Data: CD CC CC BD  returns 0x04 (0000ms, 278501ms total)
T4B70 30684:550 JLINK_ReadMemEx(0x200000B8, 0x0004 Bytes, ..., Flags = 0x02000000) -- CPU_ReadMem(4 bytes @ 0x200000B8) - Data: 00 00 AD 42  returns 0x04 (0000ms, 278501ms total)
T4B70 30684:551 JLINK_ReadMemEx(0x200000B4, 0x0004 Bytes, ..., Flags = 0x02000000) -- CPU_ReadMem(4 bytes @ 0x200000B4) - Data: 00 00 00 00  returns 0x04 (0000ms, 278501ms total)
T4B70 30684:627 JLINK_ReadMemEx(0x200000BC, 0x0004 Bytes, ..., Flags = 0x02000000) -- CPU_ReadMem(4 bytes @ 0x200000BC) - Data: 00 00 A0 40  returns 0x04 (0001ms, 278502ms total)
T4B70 30684:628 JLINK_ReadMemEx(0x200000C0, 0x0004 Bytes, ..., Flags = 0x02000000) -- CPU_ReadMem(4 bytes @ 0x200000C0) - Data: CD CC CC 3D  returns 0x04 (0000ms, 278502ms total)
T4B70 30684:628 JLINK_ReadMemEx(0x200000C4, 0x0004 Bytes, ..., Flags = 0x02000000) -- CPU_ReadMem(4 bytes @ 0x200000C4) - Data: 00 00 00 00  returns 0x04 (0001ms, 278503ms total)
T4B70 30684:629 JLINK_ReadMemEx(0x40000C00, 0x0010 Bytes, ..., Flags = 0x02000004) -- CPU_ReadMem(16 bytes @ 0x40000C00) - Data: 01 00 00 00 00 00 00 00 00 00 00 00 00 00 00 00  returns 0x10 (0000ms, 278503ms total)
T4B70 30684:629 JLINK_ReadMemEx(0x40000C10, 0x0004 Bytes, ..., Flags = 0x02000004) -- CPU_ReadMem(4 bytes @ 0x40000C10) - Data: 1F 00 00 00  returns 0x04 (0000ms, 278503ms total)
T4B70 30684:629 JLINK_ReadMemEx(0x40000C18, 0x0014 Bytes, ..., Flags = 0x02000004) -- CPU_ReadMem(20 bytes @ 0x40000C18) - Data: 68 68 00 00 00 00 00 00 11 00 00 00 11 21 00 00 ...  returns 0x14 (0001ms, 278504ms total)
T4B70 30684:630 JLINK_ReadMemEx(0x40000C2C, 0x0004 Bytes, ..., Flags = 0x02000004) -- CPU_ReadMem(4 bytes @ 0x40000C2C) - Data: 1F 4E 00 00  returns 0x04 (0000ms, 278504ms total)
T4B70 30684:630 JLINK_ReadMemEx(0x40000C34, 0x000C Bytes, ..., Flags = 0x02000004) -- CPU_ReadMem(12 bytes @ 0x40000C34) - Data: B0 04 00 00 B0 04 00 00 00 00 00 00  returns 0x0C (0001ms, 278505ms total)
T4B70 30684:631 JLINK_ReadMemEx(0x40000C40, 0x0004 Bytes, ..., Flags = 0x02000004) -- CPU_ReadMem(4 bytes @ 0x40000C40) - Data: 00 00 00 00  returns 0x04 (0000ms, 278505ms total)
T4B70 30684:631 JLINK_ReadMemEx(0x40000C48, 0x0008 Bytes, ..., Flags = 0x02000004) -- CPU_ReadMem(8 bytes @ 0x40000C48) - Data: 00 00 00 00 01 00 00 00  returns 0x08 (0000ms, 278505ms total)
T4B70 30684:631 JLINK_ReadMemEx(0x40000C50, 0x0004 Bytes, ..., Flags = 0x02000004) -- CPU_ReadMem(4 bytes @ 0x40000C50) - Data: 00 00 00 00  returns 0x04 (0001ms, 278506ms total)
TAAC4 30684:632 JLINK_IsHalted()  returns FALSE (0001ms, 278507ms total)
TAAC4 30684:734 JLINK_IsHalted()  returns FALSE (0000ms, 278506ms total)
TAAC4 30684:835 JLINK_IsHalted()  returns FALSE (0000ms, 278506ms total)
TAAC4 30684:936 JLINK_IsHalted()  returns FALSE (0000ms, 278506ms total)
TAAC4 30685:038 JLINK_IsHalted()  returns FALSE (0000ms, 278506ms total)
TAAC4 30685:139 JLINK_ReadMemU32(0xE0001004, 0x0001 Items, ...) - Data: EF 70 7E 06  returns 1 (0000ms, 278506ms total)
T4B70 30685:139 JLINK_ReadMemEx(0x200000AC, 0x0004 Bytes, ..., Flags = 0x02000000) -- CPU_ReadMem(4 bytes @ 0x200000AC) - Data: 00 00 48 C2  returns 0x04 (0000ms, 278506ms total)
T4B70 30685:139 JLINK_ReadMemEx(0x200000B0, 0x0004 Bytes, ..., Flags = 0x02000000) -- CPU_ReadMem(4 bytes @ 0x200000B0) - Data: CD CC CC BD  returns 0x04 (0000ms, 278506ms total)
T4B70 30685:140 JLINK_ReadMemEx(0x200000B8, 0x0004 Bytes, ..., Flags = 0x02000000) -- CPU_ReadMem(4 bytes @ 0x200000B8) - Data: 00 00 AD 42  returns 0x04 (0000ms, 278506ms total)
T4B70 30685:140 JLINK_ReadMemEx(0x200000B4, 0x0004 Bytes, ..., Flags = 0x02000000) -- CPU_ReadMem(4 bytes @ 0x200000B4) - Data: 00 00 00 00  returns 0x04 (0001ms, 278507ms total)
T4B70 30685:217 JLINK_ReadMemEx(0x200000BC, 0x0004 Bytes, ..., Flags = 0x02000000) -- CPU_ReadMem(4 bytes @ 0x200000BC) - Data: 00 00 A0 40  returns 0x04 (0000ms, 278507ms total)
T4B70 30685:217 JLINK_ReadMemEx(0x200000C0, 0x0004 Bytes, ..., Flags = 0x02000000) -- CPU_ReadMem(4 bytes @ 0x200000C0) - Data: CD CC CC 3D  returns 0x04 (0001ms, 278508ms total)
T4B70 30685:218 JLINK_ReadMemEx(0x200000C4, 0x0004 Bytes, ..., Flags = 0x02000000) -- CPU_ReadMem(4 bytes @ 0x200000C4) - Data: 00 00 00 00  returns 0x04 (0000ms, 278508ms total)
T4B70 30685:218 JLINK_ReadMemEx(0x40000C00, 0x0010 Bytes, ..., Flags = 0x02000004) -- CPU_ReadMem(16 bytes @ 0x40000C00) - Data: 01 00 00 00 00 00 00 00 00 00 00 00 00 00 00 00  returns 0x10 (0000ms, 278508ms total)
T4B70 30685:218 JLINK_ReadMemEx(0x40000C10, 0x0004 Bytes, ..., Flags = 0x02000004) -- CPU_ReadMem(4 bytes @ 0x40000C10) - Data: 1F 00 00 00  returns 0x04 (0001ms, 278509ms total)
T4B70 30685:219 JLINK_ReadMemEx(0x40000C18, 0x0014 Bytes, ..., Flags = 0x02000004) -- CPU_ReadMem(20 bytes @ 0x40000C18) - Data: 68 68 00 00 00 00 00 00 11 00 00 00 7B 46 00 00 ...  returns 0x14 (0000ms, 278509ms total)
T4B70 30685:219 JLINK_ReadMemEx(0x40000C2C, 0x0004 Bytes, ..., Flags = 0x02000004) -- CPU_ReadMem(4 bytes @ 0x40000C2C) - Data: 1F 4E 00 00  returns 0x04 (0001ms, 278510ms total)
T4B70 30685:220 JLINK_ReadMemEx(0x40000C34, 0x000C Bytes, ..., Flags = 0x02000004) -- CPU_ReadMem(12 bytes @ 0x40000C34) - Data: B0 04 00 00 B0 04 00 00 00 00 00 00  returns 0x0C (0000ms, 278510ms total)
T4B70 30685:220 JLINK_ReadMemEx(0x40000C40, 0x0004 Bytes, ..., Flags = 0x02000004) -- CPU_ReadMem(4 bytes @ 0x40000C40) - Data: 00 00 00 00  returns 0x04 (0000ms, 278510ms total)
T4B70 30685:220 JLINK_ReadMemEx(0x40000C48, 0x0008 Bytes, ..., Flags = 0x02000004) -- CPU_ReadMem(8 bytes @ 0x40000C48) - Data: 00 00 00 00 01 00 00 00  returns 0x08 (0001ms, 278511ms total)
T4B70 30685:221 JLINK_ReadMemEx(0x40000C50, 0x0004 Bytes, ..., Flags = 0x02000004) -- CPU_ReadMem(4 bytes @ 0x40000C50) - Data: 00 00 00 00  returns 0x04 (0000ms, 278511ms total)
TAAC4 30685:221 JLINK_IsHalted()  returns FALSE (0001ms, 278512ms total)
TAAC4 30685:323 JLINK_IsHalted()  returns FALSE (0000ms, 278511ms total)
TAAC4 30685:424 JLINK_IsHalted()  returns FALSE (0001ms, 278512ms total)
TAAC4 30685:526 JLINK_IsHalted()  returns FALSE (0000ms, 278511ms total)
TAAC4 30685:626 JLINK_IsHalted()  returns FALSE (0000ms, 278511ms total)
TAAC4 30685:727 JLINK_ReadMemU32(0xE0001004, 0x0001 Items, ...) - Data: EF 70 7E 06  returns 1 (0000ms, 278511ms total)
T4B70 30685:727 JLINK_ReadMemEx(0x200000AC, 0x0004 Bytes, ..., Flags = 0x02000000) -- CPU_ReadMem(4 bytes @ 0x200000AC) - Data: 00 00 48 C2  returns 0x04 (0000ms, 278511ms total)
T4B70 30685:727 JLINK_ReadMemEx(0x200000B0, 0x0004 Bytes, ..., Flags = 0x02000000) -- CPU_ReadMem(4 bytes @ 0x200000B0) - Data: CD CC CC BD  returns 0x04 (0001ms, 278512ms total)
T4B70 30685:728 JLINK_ReadMemEx(0x200000B8, 0x0004 Bytes, ..., Flags = 0x02000000) -- CPU_ReadMem(4 bytes @ 0x200000B8) - Data: 00 00 AD 42  returns 0x04 (0000ms, 278512ms total)
T4B70 30685:728 JLINK_ReadMemEx(0x200000B4, 0x0004 Bytes, ..., Flags = 0x02000000) -- CPU_ReadMem(4 bytes @ 0x200000B4) - Data: 00 00 00 00  returns 0x04 (0001ms, 278513ms total)
T4B70 30685:813 JLINK_ReadMemEx(0x200000BC, 0x0004 Bytes, ..., Flags = 0x02000000) -- CPU_ReadMem(4 bytes @ 0x200000BC) - Data: 00 00 A0 40  returns 0x04 (0001ms, 278514ms total)
T4B70 30685:814 JLINK_ReadMemEx(0x200000C0, 0x0004 Bytes, ..., Flags = 0x02000000) -- CPU_ReadMem(4 bytes @ 0x200000C0) - Data: CD CC CC 3D  returns 0x04 (0000ms, 278514ms total)
T4B70 30685:814 JLINK_ReadMemEx(0x200000C4, 0x0004 Bytes, ..., Flags = 0x02000000) -- CPU_ReadMem(4 bytes @ 0x200000C4) - Data: 00 00 00 00  returns 0x04 (0001ms, 278515ms total)
T4B70 30685:815 JLINK_ReadMemEx(0x40000C00, 0x0010 Bytes, ..., Flags = 0x02000004) -- CPU_ReadMem(16 bytes @ 0x40000C00) - Data: 01 00 00 00 00 00 00 00 00 00 00 00 00 00 00 00  returns 0x10 (0000ms, 278515ms total)
T4B70 30685:815 JLINK_ReadMemEx(0x40000C10, 0x0004 Bytes, ..., Flags = 0x02000004) -- CPU_ReadMem(4 bytes @ 0x40000C10) - Data: 1F 00 00 00  returns 0x04 (0001ms, 278516ms total)
T4B70 30685:816 JLINK_ReadMemEx(0x40000C18, 0x0014 Bytes, ..., Flags = 0x02000004) -- CPU_ReadMem(20 bytes @ 0x40000C18) - Data: 68 68 00 00 00 00 00 00 11 00 00 00 83 39 00 00 ...  returns 0x14 (0000ms, 278516ms total)
T4B70 30685:816 JLINK_ReadMemEx(0x40000C2C, 0x0004 Bytes, ..., Flags = 0x02000004) -- CPU_ReadMem(4 bytes @ 0x40000C2C) - Data: 1F 4E 00 00  returns 0x04 (0001ms, 278517ms total)
T4B70 30685:817 JLINK_ReadMemEx(0x40000C34, 0x000C Bytes, ..., Flags = 0x02000004) -- CPU_ReadMem(12 bytes @ 0x40000C34) - Data: B0 04 00 00 B0 04 00 00 00 00 00 00  returns 0x0C (0000ms, 278517ms total)
T4B70 30685:817 JLINK_ReadMemEx(0x40000C40, 0x0004 Bytes, ..., Flags = 0x02000004) -- CPU_ReadMem(4 bytes @ 0x40000C40) - Data: 00 00 00 00  returns 0x04 (0000ms, 278517ms total)
T4B70 30685:817 JLINK_ReadMemEx(0x40000C48, 0x0008 Bytes, ..., Flags = 0x02000004) -- CPU_ReadMem(8 bytes @ 0x40000C48) - Data: 00 00 00 00 01 00 00 00  returns 0x08 (0001ms, 278518ms total)
T4B70 30685:818 JLINK_ReadMemEx(0x40000C50, 0x0004 Bytes, ..., Flags = 0x02000004) -- CPU_ReadMem(4 bytes @ 0x40000C50) - Data: 00 00 00 00  returns 0x04 (0000ms, 278518ms total)
TAAC4 30685:819 JLINK_IsHalted()  returns FALSE (0000ms, 278518ms total)
TAAC4 30685:920 JLINK_IsHalted()  returns FALSE (0000ms, 278518ms total)
TAAC4 30686:021 JLINK_IsHalted()  returns FALSE (0000ms, 278518ms total)
TAAC4 30686:122 JLINK_IsHalted()  returns FALSE (0000ms, 278518ms total)
TAAC4 30686:223 JLINK_IsHalted()  returns FALSE (0000ms, 278518ms total)
